[2021-Oct-15 16:09:05] [ info] --------------------------------------------------------------------------------
[2021-Oct-15 16:09:05] [ info] nrfjprog -f nrf52 --program main.hex --sectorerase --log 
[2021-Oct-15 16:09:05] [ info] nrfjprog version 10.14.0 external
[2021-Oct-15 16:09:05] [ info] --------------------------------------------------------------------------------
[2021-Oct-15 16:09:05] [ info] Load library at /opt/nrf5x-command-line-tools/lib/libnrfjprogdll.so.
[2021-Oct-15 16:09:05] [ info] Library loaded, loading member functions.
[2021-Oct-15 16:09:05] [ info] Member functions succesfully loaded.
[2021-Oct-15 16:09:05] [debug] [ Client] - open
[2021-Oct-15 16:09:05] [debug] [ Client] - start
[2021-Oct-15 16:09:05] [ info] [ Client] - stdout: Jlinkarm nRF Worker ready. Handling sequence a736f777-a7f0-40d5-a78c-2f525508d1c1.
[2021-Oct-15 16:09:05] [trace] [ Client] - Command open executed for 2 milliseconds with result 0
[2021-Oct-15 16:09:05] [debug] [ Client] - enum_emu_snr
[2021-Oct-15 16:09:05] [debug] [SeggerBackend] - Logger sink registered in Segger backend logger
[2021-Oct-15 16:09:05] [debug] [  JLink] - Logger sink registered in JLink logger
[2021-Oct-15 16:09:05] [debug] [  nRF52] - open
[2021-Oct-15 16:09:05] [debug] [SeggerBackend] - open_dll
[2021-Oct-15 16:09:05] [debug] [SeggerBackend] - No J-Link DLL path was provided. Attempting to auto detect.
[2021-Oct-15 16:09:05] [ info] [SeggerBackend] - Load library at /opt/SEGGER/JLink/libjlinkarm.so.
[2021-Oct-15 16:09:05] [ info] [SeggerBackend] - Library loaded, loading member functions.
[2021-Oct-15 16:09:05] [ info] [SeggerBackend] - Member functions succesfully loaded.
[2021-Oct-15 16:09:05] [debug] [SeggerBackend] - dll_version
[2021-Oct-15 16:09:05] [ info] [SeggerBackend] - Segger dll version 7.54.b loaded.
[2021-Oct-15 16:09:05] [trace] [ Worker] - Command open executed for 1 milliseconds with result 0
[2021-Oct-15 16:09:05] [debug] [  nRF52] - enum_emu_snr
[2021-Oct-15 16:09:05] [debug] [SeggerBackend] - is_connected_to_emu
[2021-Oct-15 16:09:05] [debug] [SeggerBackend] - enum_emu_snr
[2021-Oct-15 16:09:05] [debug] [SeggerBackend] - ---just_enum_emu_snr
[2021-Oct-15 16:09:05] [debug] [SeggerBackend] - ---just_get_num_emus
[2021-Oct-15 16:09:05] [trace] [ Client] - Command enum_emu_snr executed for 208 milliseconds with result 0
[2021-Oct-15 16:09:05] [debug] [ Client] - connect_to_emu_with_snr
[2021-Oct-15 16:09:05] [debug] [SeggerBackend] - is_connected_to_emu
[2021-Oct-15 16:09:05] [trace] [ Worker] - Command enum_emu_snr executed for 208 milliseconds with result 0
[2021-Oct-15 16:09:05] [debug] [  nRF52] - connect_to_emu_with_snr
[2021-Oct-15 16:09:05] [debug] [SeggerBackend] - is_connected_to_emu
[2021-Oct-15 16:09:05] [debug] [SeggerBackend] - connect_to_emu_with_snr
[2021-Oct-15 16:09:05] [debug] [SeggerBackend] - is_connected_to_emu
[2021-Oct-15 16:09:05] [debug] [SeggerBackend] - ---just_enum_emu_snr
[2021-Oct-15 16:09:05] [debug] [SeggerBackend] - ---just_get_num_emus
[2021-Oct-15 16:09:06] [debug] [SeggerBackend] - ---just_connect_to_emu_with_snr
[2021-Oct-15 16:09:06] [debug] [SeggerBackend] - ---just_connect_to_emu_without_snr
[2021-Oct-15 16:09:06] [debug] [SeggerBackend] - Segger logging enabled.
[2021-Oct-15 16:09:06] [trace] [  JLink] -    ***** Error: 
[2021-Oct-15 16:09:06] [trace] [  JLink] - Cannot connect to J-Link.
[2021-Oct-15 16:09:06] [trace] [  JLink] - - 11.032ms returns "Cannot connect to J-Link."  
[2021-Oct-15 16:09:06] [trace] [  JLink] - JLINK_HasError()  
[2021-Oct-15 16:09:06] [error] [SeggerBackend] - JLinkARM.dll Open returned error 'Cannot connect to J-Link.'
[2021-Oct-15 16:09:06] [trace] [  JLink] - JLINK_OpenEx(...)  
[2021-Oct-15 16:09:06] [trace] [  JLink] - - 2.285ms returns "Failed to open DLL"  
[2021-Oct-15 16:09:06] [trace] [  JLink] - JLINK_HasError()  
[2021-Oct-15 16:09:06] [error] [SeggerBackend] - JLinkARM.dll Open returned error 'Failed to open DLL'
[2021-Oct-15 16:09:06] [trace] [  JLink] - JLINK_OpenEx(...)  
[2021-Oct-15 16:09:06] [trace] [ Client] - Command connect_to_emu_with_snr executed for 329 milliseconds with result -102
[2021-Oct-15 16:09:06] [trace] [  JLink] - - 2.243ms returns "Failed to open DLL"  
[2021-Oct-15 16:09:06] [trace] [  JLink] - JLINK_HasError()  
[2021-Oct-15 16:09:06] [error] [SeggerBackend] - JLinkARM.dll Open returned error 'Failed to open DLL'
[2021-Oct-15 16:09:06] [trace] [  JLink] - JLINK_OpenEx(...)  
[2021-Oct-15 16:09:06] [trace] [  JLink] - - 2.199ms returns "Failed to open DLL"  
[2021-Oct-15 16:09:06] [trace] [  JLink] - JLINK_HasError()  
[2021-Oct-15 16:09:06] [error] [SeggerBackend] - JLinkARM.dll Open returned error 'Failed to open DLL'
[2021-Oct-15 16:09:06] [trace] [  JLink] - JLINK_OpenEx(...)  
[2021-Oct-15 16:09:06] [trace] [  JLink] - - 2.205ms returns "Failed to open DLL"  
[2021-Oct-15 16:09:06] [trace] [  JLink] - JLINK_HasError()  
[2021-Oct-15 16:09:06] [error] [SeggerBackend] - JLinkARM.dll Open returned error 'Failed to open DLL'
[2021-Oct-15 16:09:06] [debug] [SeggerBackend] - is_connected_to_emu
[2021-Oct-15 16:09:06] [trace] [  JLink] - JLINK_IsOpen()  
[2021-Oct-15 16:09:06] [trace] [  JLink] - - 0.003ms returns 0x00  
[2021-Oct-15 16:09:06] [trace] [  JLink] - JLINK_HasError()  
[2021-Oct-15 16:09:06] [trace] [ Worker] - Command connect_to_emu_with_snr executed for 329 milliseconds with result -102
[2021-Oct-15 16:09:06] [debug] [  nRF52] - close
[2021-Oct-15 16:09:06] [debug] [SeggerBackend] - is_connected_to_emu
[2021-Oct-15 16:09:06] [trace] [  JLink] - JLINK_IsOpen()  
[2021-Oct-15 16:09:06] [trace] [  JLink] - - 0.004ms returns 0x00  
[2021-Oct-15 16:09:06] [trace] [  JLink] - JLINK_HasError()  
[2021-Oct-15 16:09:06] [debug] [SeggerBackend] - close
[2021-Oct-15 16:09:06] [debug] [SeggerBackend] - disconnect_from_emu
[2021-Oct-15 16:09:06] [debug] [SeggerBackend] - is_connected_to_emu
[2021-Oct-15 16:09:06] [trace] [  JLink] - JLINK_IsOpen()  
[2021-Oct-15 16:09:06] [trace] [  JLink] - - 0.004ms returns 0x00  
[2021-Oct-15 16:09:06] [trace] [  JLink] - JLINK_HasError()  
[2021-Oct-15 16:09:06] [debug] [SeggerBackend] - Segger Backend closed.
[2021-Oct-15 16:09:06] [debug] [  nRF52] - nRF family DLL closed
[2021-Oct-15 16:09:06] [trace] [ Client] - Command close executed for 10 milliseconds with result 0
[2021-Oct-15 16:09:06] [debug] [ Client] - terminate
[2021-Oct-15 16:09:06] [trace] [ Client] - Command terminate executed for 0 milliseconds with result 0
[2021-Oct-15 16:09:06] [trace] [ Worker] - Command close executed for 10 milliseconds with result 0
[2021-Oct-15 16:09:06] [trace] [ Worker] - Command terminate executed for 0 milliseconds with result 0
[2021-Oct-15 16:09:06] [trace] [ Worker] - Executed 5 commands for 548 milliseconds
[2021-Oct-15 16:09:06] [debug] [ Client] - Worker process exited with code: 0
[2021-Oct-15 16:09:06] [debug] [ Client] - Worker process exited with code: 0
[2021-Oct-15 16:09:06] [debug] [ Client] - Tried to wait on already ended process: wait error: No child processes
[2021-Oct-15 16:09:06] [debug] [ Client] - Child process terminated with result 0
[2021-Oct-15 16:09:06] [trace] [ Client] - Executed 5 commands for 549 milliseconds
[2021-Oct-15 16:09:06] [debug] [ Client] - terminate
[2021-Oct-15 16:09:54] [ info] --------------------------------------------------------------------------------
[2021-Oct-15 16:09:54] [ info] nrfjprog -f nrf52 --program main.hex --sectorerase --log 
[2021-Oct-15 16:09:54] [ info] nrfjprog version 10.14.0 external
[2021-Oct-15 16:09:54] [ info] --------------------------------------------------------------------------------
[2021-Oct-15 16:09:54] [ info] Load library at /opt/nrf5x-command-line-tools/lib/libnrfjprogdll.so.
[2021-Oct-15 16:09:54] [ info] Library loaded, loading member functions.
[2021-Oct-15 16:09:54] [ info] Member functions succesfully loaded.
[2021-Oct-15 16:09:54] [debug] [ Client] - open
[2021-Oct-15 16:09:54] [debug] [ Client] - start
[2021-Oct-15 16:09:54] [ info] [ Client] - stdout: Jlinkarm nRF Worker ready. Handling sequence 462cc752-4b19-44ad-9925-904176dd4356.
[2021-Oct-15 16:09:54] [trace] [ Client] - Command open executed for 2 milliseconds with result 0
[2021-Oct-15 16:09:54] [debug] [ Client] - enum_emu_snr
[2021-Oct-15 16:09:54] [debug] [SeggerBackend] - Logger sink registered in Segger backend logger
[2021-Oct-15 16:09:54] [debug] [  JLink] - Logger sink registered in JLink logger
[2021-Oct-15 16:09:54] [debug] [  nRF52] - open
[2021-Oct-15 16:09:54] [debug] [SeggerBackend] - open_dll
[2021-Oct-15 16:09:54] [debug] [SeggerBackend] - No J-Link DLL path was provided. Attempting to auto detect.
[2021-Oct-15 16:09:54] [ info] [SeggerBackend] - Load library at /opt/SEGGER/JLink/libjlinkarm.so.
[2021-Oct-15 16:09:54] [ info] [SeggerBackend] - Library loaded, loading member functions.
[2021-Oct-15 16:09:54] [ info] [SeggerBackend] - Member functions succesfully loaded.
[2021-Oct-15 16:09:54] [debug] [SeggerBackend] - dll_version
[2021-Oct-15 16:09:54] [ info] [SeggerBackend] - Segger dll version 7.54.b loaded.
[2021-Oct-15 16:09:54] [trace] [ Worker] - Command open executed for 1 milliseconds with result 0
[2021-Oct-15 16:09:54] [debug] [  nRF52] - enum_emu_snr
[2021-Oct-15 16:09:54] [debug] [SeggerBackend] - is_connected_to_emu
[2021-Oct-15 16:09:54] [debug] [SeggerBackend] - enum_emu_snr
[2021-Oct-15 16:09:54] [debug] [SeggerBackend] - ---just_enum_emu_snr
[2021-Oct-15 16:09:54] [debug] [SeggerBackend] - ---just_get_num_emus
[2021-Oct-15 16:09:54] [trace] [ Client] - Command enum_emu_snr executed for 212 milliseconds with result 0
[2021-Oct-15 16:09:54] [debug] [ Client] - connect_to_emu_with_snr
[2021-Oct-15 16:09:54] [debug] [SeggerBackend] - is_connected_to_emu
[2021-Oct-15 16:09:54] [trace] [ Worker] - Command enum_emu_snr executed for 212 milliseconds with result 0
[2021-Oct-15 16:09:54] [debug] [  nRF52] - connect_to_emu_with_snr
[2021-Oct-15 16:09:54] [debug] [SeggerBackend] - is_connected_to_emu
[2021-Oct-15 16:09:54] [debug] [SeggerBackend] - connect_to_emu_with_snr
[2021-Oct-15 16:09:54] [debug] [SeggerBackend] - is_connected_to_emu
[2021-Oct-15 16:09:54] [debug] [SeggerBackend] - ---just_enum_emu_snr
[2021-Oct-15 16:09:54] [debug] [SeggerBackend] - ---just_get_num_emus
[2021-Oct-15 16:09:54] [debug] [SeggerBackend] - ---just_connect_to_emu_with_snr
[2021-Oct-15 16:09:55] [debug] [SeggerBackend] - ---just_connect_to_emu_without_snr
[2021-Oct-15 16:09:55] [debug] [SeggerBackend] - Segger logging enabled.
[2021-Oct-15 16:09:55] [trace] [  JLink] - Firmware: J-Link OB-SAM3U128-V2-NordicSemi compiled Feb  2 2021 16:47:20
[2021-Oct-15 16:09:55] [trace] [  JLink] - Firmware: J-Link OB-SAM3U128-V2-NordicSemi compiled Feb  2 2021 16:47:20
[2021-Oct-15 16:09:55] [trace] [  JLink] - Hardware: V1.00
[2021-Oct-15 16:09:55] [trace] [  JLink] - S/N: 682779117
[2021-Oct-15 16:09:55] [trace] [  JLink] - OEM: SEGGER
[2021-Oct-15 16:09:55] [trace] [  JLink] - Feature(s): RDI, FlashBP, FlashDL, JFlash, GDB
[2021-Oct-15 16:09:55] [trace] [  JLink] - TELNET listener socket opened on port 19021
[2021-Oct-15 16:09:55] [trace] [  JLink] - WEBSRV Starting webserver
[2021-Oct-15 16:09:55] [trace] [  JLink] - WEBSRV Webserver running on local port 19080
[2021-Oct-15 16:09:55] [trace] [  JLink] - - 17.449ms returns "O.K."  
[2021-Oct-15 16:09:55] [trace] [  JLink] - JLINK_HasError()  
[2021-Oct-15 16:09:55] [trace] [  JLink] - JLINK_Lock()  
[2021-Oct-15 16:09:55] [trace] [  JLink] - JLINK_GetHWStatus(...)  
[2021-Oct-15 16:09:55] [trace] [  JLink] - - 0.086ms returns 0  
[2021-Oct-15 16:09:55] [trace] [  JLink] - JLINK_HasError()  
[2021-Oct-15 16:09:55] [trace] [  JLink] - JLINK_ExecCommand("SetRestartOnClose = 0", ...).   
[2021-Oct-15 16:09:55] [trace] [  JLink] - - 0.002ms returns 0x01  
[2021-Oct-15 16:09:55] [trace] [  JLink] - JLINK_HasError()  
[2021-Oct-15 16:09:55] [trace] [  JLink] - JLINK_ExecCommand("DisableFlashDL", ...).   
[2021-Oct-15 16:09:55] [trace] [  JLink] - - 0.002ms returns 0x00  
[2021-Oct-15 16:09:55] [trace] [  JLink] - JLINK_HasError()  
[2021-Oct-15 16:09:55] [trace] [  JLink] - JLINK_ExecCommand("ExcludeFlashCacheRange 0x0-0xFFFFFFFF", ...).   
[2021-Oct-15 16:09:55] [trace] [  JLink] - - 0.002ms returns 0x00  
[2021-Oct-15 16:09:55] [trace] [  JLink] - JLINK_HasError()  
[2021-Oct-15 16:09:55] [trace] [  JLink] - JLINK_SetHookUnsecureDialog  
[2021-Oct-15 16:09:55] [trace] [  JLink] - JLINK_SetHookUnsecureDialog(...)
[2021-Oct-15 16:09:55] [trace] [  JLink] - - 0.006ms returns 0  
[2021-Oct-15 16:09:55] [trace] [  JLink] - JLINK_HasError()  
[2021-Oct-15 16:09:55] [trace] [  JLink] - JLINK_TIF_Select(JLINKARM_TIF_SWD)  
[2021-Oct-15 16:09:55] [trace] [  JLink] - - 0.326ms returns 0x00  
[2021-Oct-15 16:09:55] [trace] [  JLink] - JLINK_HasError()  
[2021-Oct-15 16:09:55] [trace] [  JLink] - JLINK_SetSpeed(2000)  
[2021-Oct-15 16:09:55] [trace] [  JLink] - - 0.072ms  
[2021-Oct-15 16:09:55] [trace] [  JLink] - JLINK_HasError()  
[2021-Oct-15 16:09:55] [trace] [  JLink] - JLINK_GetSN()  
[2021-Oct-15 16:09:55] [trace] [  JLink] - - 0.003ms returns 682779117  
[2021-Oct-15 16:09:55] [trace] [  JLink] - JLINK_HasError()  
[2021-Oct-15 16:09:55] [debug] [SeggerBackend] - read_debug_port_idr
[2021-Oct-15 16:09:55] [debug] [SeggerBackend] - read_debug_port_register
[2021-Oct-15 16:09:55] [debug] [SeggerBackend] - ---just_read_debug_port_register
[2021-Oct-15 16:09:55] [debug] [SeggerBackend] - coresight_configure
[2021-Oct-15 16:09:55] [trace] [  JLink] - JLINK_CORESIGHT_Configure()  
[2021-Oct-15 16:09:55] [trace] [ Client] - Command connect_to_emu_with_snr executed for 341 milliseconds with result 0
[2021-Oct-15 16:09:55] [debug] [ Client] - read_device_info
[2021-Oct-15 16:09:55] [trace] [  JLink] - - 0.890ms returns 0  
[2021-Oct-15 16:09:55] [trace] [  JLink] - JLINK_HasError()  
[2021-Oct-15 16:09:55] [debug] [SeggerBackend] - ---just_select_debug_port_register
[2021-Oct-15 16:09:55] [debug] [SeggerBackend] - Select AP 255, DP Bank 0, AP Bank 255
[2021-Oct-15 16:09:55] [trace] [  JLink] - JLINK_CORESIGHT_WriteAPDPReg(DP reg 0x02, 0x00000000)  
[2021-Oct-15 16:09:55] [trace] [  JLink] - - 0.215ms returns 0  
[2021-Oct-15 16:09:55] [trace] [  JLink] - JLINK_HasError()  
[2021-Oct-15 16:09:55] [trace] [  JLink] - JLINK_CORESIGHT_ReadAPDPReg(DP reg 0x00)  
[2021-Oct-15 16:09:55] [trace] [  JLink] - Value=0x2BA01477
[2021-Oct-15 16:09:55] [trace] [  JLink] - - 0.211ms returns 0  
[2021-Oct-15 16:09:55] [trace] [  JLink] - JLINK_HasError()  
[2021-Oct-15 16:09:55] [trace] [  JLink] - - 0.004ms  
[2021-Oct-15 16:09:55] [trace] [ Worker] - Command connect_to_emu_with_snr executed for 341 milliseconds with result 0
[2021-Oct-15 16:09:55] [debug] [  nRF52] - read_device_info
[2021-Oct-15 16:09:55] [debug] [SeggerBackend] - is_connected_to_emu
[2021-Oct-15 16:09:55] [trace] [  JLink] - JLINK_IsOpen()  
[2021-Oct-15 16:09:55] [trace] [  JLink] - - 0.006ms returns 0x01  
[2021-Oct-15 16:09:55] [trace] [  JLink] - JLINK_HasError()  
[2021-Oct-15 16:09:55] [trace] [  JLink] - JLINK_Lock()  
[2021-Oct-15 16:09:55] [debug] [  nRF52] - Just_read_device_version
[2021-Oct-15 16:09:55] [debug] [  nRF52] - Just_readback_status
[2021-Oct-15 16:09:55] [debug] [  nRF52] - Just_is_ctrl_ap_available
[2021-Oct-15 16:09:55] [debug] [SeggerBackend] - read_access_port_register
[2021-Oct-15 16:09:55] [debug] [SeggerBackend] - ---just_read_access_port_register
[2021-Oct-15 16:09:55] [debug] [SeggerBackend] - ---just_is_debug_region_powered
[2021-Oct-15 16:09:55] [debug] [SeggerBackend] - ---just_read_debug_port_register
[2021-Oct-15 16:09:55] [debug] [SeggerBackend] - ---just_select_debug_port_register
[2021-Oct-15 16:09:55] [debug] [SeggerBackend] - Select AP 255, DP Bank 0, AP Bank 255
[2021-Oct-15 16:09:55] [trace] [  JLink] - JLINK_CORESIGHT_WriteAPDPReg(DP reg 0x02, 0x00000000)  
[2021-Oct-15 16:09:55] [trace] [  JLink] - - 0.187ms returns 0  
[2021-Oct-15 16:09:55] [trace] [  JLink] - JLINK_HasError()  
[2021-Oct-15 16:09:55] [trace] [  JLink] - JLINK_CORESIGHT_ReadAPDPReg(DP reg 0x01)  
[2021-Oct-15 16:09:55] [trace] [  JLink] - Value=0xF0000040
[2021-Oct-15 16:09:55] [trace] [  JLink] - - 0.324ms returns 0  
[2021-Oct-15 16:09:55] [trace] [  JLink] - JLINK_HasError()  
[2021-Oct-15 16:09:55] [debug] [SeggerBackend] - ---just_select_access_port_register
[2021-Oct-15 16:09:55] [debug] [SeggerBackend] - Select AP 1, DP Bank 0, AP Bank 15
[2021-Oct-15 16:09:55] [trace] [  JLink] - JLINK_CORESIGHT_WriteAPDPReg(DP reg 0x02, 0x010000F0)  
[2021-Oct-15 16:09:55] [trace] [  JLink] - - 0.231ms returns 0  
[2021-Oct-15 16:09:55] [trace] [  JLink] - JLINK_HasError()  
[2021-Oct-15 16:09:55] [trace] [  JLink] - JLINK_CORESIGHT_ReadAPDPReg(AP reg 0x03)  
[2021-Oct-15 16:09:55] [trace] [  JLink] - Value=0x02880000
[2021-Oct-15 16:09:55] [trace] [  JLink] - - 0.265ms returns 0  
[2021-Oct-15 16:09:55] [trace] [  JLink] - JLINK_HasError()  
[2021-Oct-15 16:09:55] [debug] [SeggerBackend] - read_access_port_register
[2021-Oct-15 16:09:55] [debug] [SeggerBackend] - ---just_read_access_port_register
[2021-Oct-15 16:09:55] [debug] [SeggerBackend] - ---just_select_access_port_register
[2021-Oct-15 16:09:55] [trace] [  JLink] - JLINK_CORESIGHT_ReadAPDPReg(AP reg 0x03)  
[2021-Oct-15 16:09:55] [trace] [  JLink] - Value=0x02880000
[2021-Oct-15 16:09:55] [trace] [  JLink] - - 0.233ms returns 0  
[2021-Oct-15 16:09:55] [trace] [  JLink] - JLINK_HasError()  
[2021-Oct-15 16:09:55] [debug] [SeggerBackend] - read_access_port_register
[2021-Oct-15 16:09:55] [debug] [SeggerBackend] - ---just_read_access_port_register
[2021-Oct-15 16:09:55] [debug] [SeggerBackend] - ---just_select_access_port_register
[2021-Oct-15 16:09:55] [trace] [  JLink] - JLINK_CORESIGHT_ReadAPDPReg(AP reg 0x03)  
[2021-Oct-15 16:09:55] [trace] [  JLink] - Value=0x02880000
[2021-Oct-15 16:09:55] [trace] [  JLink] - - 0.267ms returns 0  
[2021-Oct-15 16:09:55] [trace] [  JLink] - JLINK_HasError()  
[2021-Oct-15 16:09:55] [debug] [SeggerBackend] - read_access_port_register
[2021-Oct-15 16:09:55] [debug] [SeggerBackend] - ---just_read_access_port_register
[2021-Oct-15 16:09:55] [debug] [SeggerBackend] - ---just_select_access_port_register
[2021-Oct-15 16:09:55] [trace] [  JLink] - JLINK_CORESIGHT_ReadAPDPReg(AP reg 0x03)  
[2021-Oct-15 16:09:55] [trace] [  JLink] - Value=0x02880000
[2021-Oct-15 16:09:55] [trace] [  JLink] - - 0.307ms returns 0  
[2021-Oct-15 16:09:55] [trace] [  JLink] - JLINK_HasError()  
[2021-Oct-15 16:09:55] [debug] [SeggerBackend] - read_access_port_register
[2021-Oct-15 16:09:55] [debug] [SeggerBackend] - ---just_read_access_port_register
[2021-Oct-15 16:09:55] [debug] [SeggerBackend] - ---just_select_access_port_register
[2021-Oct-15 16:09:55] [debug] [SeggerBackend] - Select AP 1, DP Bank 0, AP Bank 0
[2021-Oct-15 16:09:55] [trace] [  JLink] - JLINK_CORESIGHT_WriteAPDPReg(DP reg 0x02, 0x01000000)  
[2021-Oct-15 16:09:55] [trace] [  JLink] - - 0.199ms returns 0  
[2021-Oct-15 16:09:55] [trace] [  JLink] - JLINK_HasError()  
[2021-Oct-15 16:09:55] [trace] [  JLink] - JLINK_CORESIGHT_ReadAPDPReg(AP reg 0x03)  
[2021-Oct-15 16:09:55] [trace] [  JLink] - Value=0x00000001
[2021-Oct-15 16:09:55] [trace] [  JLink] - - 0.274ms returns 0  
[2021-Oct-15 16:09:55] [trace] [  JLink] - JLINK_HasError()  
[2021-Oct-15 16:09:55] [debug] [SeggerBackend] - read_access_port_register
[2021-Oct-15 16:09:55] [debug] [SeggerBackend] - ---just_read_access_port_register
[2021-Oct-15 16:09:55] [debug] [SeggerBackend] - ---just_select_access_port_register
[2021-Oct-15 16:09:55] [trace] [  JLink] - JLINK_CORESIGHT_ReadAPDPReg(AP reg 0x03)  
[2021-Oct-15 16:09:55] [trace] [  JLink] - Value=0x00000001
[2021-Oct-15 16:09:55] [trace] [  JLink] - - 0.240ms returns 0  
[2021-Oct-15 16:09:55] [trace] [  JLink] - JLINK_HasError()  
[2021-Oct-15 16:09:55] [debug] [SeggerBackend] - read_access_port_register
[2021-Oct-15 16:09:55] [debug] [SeggerBackend] - ---just_read_access_port_register
[2021-Oct-15 16:09:55] [debug] [SeggerBackend] - ---just_select_access_port_register
[2021-Oct-15 16:09:55] [trace] [  JLink] - JLINK_CORESIGHT_ReadAPDPReg(AP reg 0x03)  
[2021-Oct-15 16:09:55] [trace] [  JLink] - Value=0x00000001
[2021-Oct-15 16:09:55] [trace] [  JLink] - - 0.247ms returns 0  
[2021-Oct-15 16:09:55] [trace] [  JLink] - JLINK_HasError()  
[2021-Oct-15 16:09:55] [debug] [SeggerBackend] - read_access_port_register
[2021-Oct-15 16:09:55] [debug] [SeggerBackend] - ---just_read_access_port_register
[2021-Oct-15 16:09:55] [debug] [SeggerBackend] - ---just_select_access_port_register
[2021-Oct-15 16:09:55] [trace] [  JLink] - JLINK_CORESIGHT_ReadAPDPReg(AP reg 0x03)  
[2021-Oct-15 16:09:55] [trace] [  JLink] - Value=0x00000001
[2021-Oct-15 16:09:55] [trace] [  JLink] - - 0.263ms returns 0  
[2021-Oct-15 16:09:55] [trace] [  JLink] - JLINK_HasError()  
[2021-Oct-15 16:09:55] [ info] [  nRF52] - Protection status read as NONE
[2021-Oct-15 16:09:55] [debug] [SeggerBackend] - read_u32
[2021-Oct-15 16:09:55] [debug] [SeggerBackend] - ---just_connect_to_device
[2021-Oct-15 16:09:55] [debug] [SeggerBackend] - is_connected_to_device
[2021-Oct-15 16:09:55] [trace] [  JLink] - JLINK_IsConnected()  
[2021-Oct-15 16:09:55] [trace] [  JLink] - - 0.003ms returns FALSE  
[2021-Oct-15 16:09:55] [trace] [  JLink] - JLINK_HasError()  
[2021-Oct-15 16:09:55] [debug] [SeggerBackend] - ---set_coresight_ahb_ap_index
[2021-Oct-15 16:09:55] [trace] [  JLink] - JLINK_ExecCommand("CORESIGHT_SetIndexAHBAPToUse = 0", ...).   
[2021-Oct-15 16:09:55] [trace] [  JLink] - - 0.002ms returns 0x00  
[2021-Oct-15 16:09:55] [trace] [  JLink] - JLINK_HasError()  
[2021-Oct-15 16:09:55] [trace] [  JLink] - JLINK_ExecCommand("device = nRF52", ...).   
[2021-Oct-15 16:09:55] [trace] [  JLink] - Device "NRF52" selected.
[2021-Oct-15 16:09:55] [trace] [  JLink] - Device "NRF52" selected.
[2021-Oct-15 16:09:55] [trace] [  JLink] - - 0.379ms returns 0x00  
[2021-Oct-15 16:09:55] [trace] [  JLink] - JLINK_HasError()  
[2021-Oct-15 16:09:55] [trace] [  JLink] - JLINK_Connect()  
[2021-Oct-15 16:09:55] [trace] [  JLink] - InitTarget() start
[2021-Oct-15 16:09:55] [trace] [  JLink] - InitTarget() start
[2021-Oct-15 16:09:55] [trace] [  JLink] -  J-Link Script File: Executing InitTarget() 
[2021-Oct-15 16:09:55] [trace] [  JLink] - InitTarget() end
[2021-Oct-15 16:09:55] [trace] [  JLink] - InitTarget() end
[2021-Oct-15 16:09:55] [trace] [  JLink] - Found SW-DP with ID 0x2BA01477
[2021-Oct-15 16:09:55] [trace] [  JLink] - Found SW-DP with ID 0x2BA01477
[2021-Oct-15 16:09:55] [trace] [  JLink] - DPIDR: 0x2BA01477
[2021-Oct-15 16:09:55] [trace] [  JLink] - DPIDR: 0x2BA01477
[2021-Oct-15 16:09:55] [trace] [  JLink] - AP map detection skipped. Manually configured AP map found.
[2021-Oct-15 16:09:55] [trace] [  JLink] - AP map detection skipped. Manually configured AP map found.
[2021-Oct-15 16:09:55] [trace] [  JLink] - AP[0]: AHB-AP (IDR: Not set)
[2021-Oct-15 16:09:55] [trace] [  JLink] - AP[0]: AHB-AP (IDR: Not set)
[2021-Oct-15 16:09:55] [trace] [  JLink] - AP[0]: Core found
[2021-Oct-15 16:09:55] [trace] [  JLink] - AP[0]: Core found
[2021-Oct-15 16:09:55] [trace] [  JLink] - AP[0]: AHB-AP ROM base: 0xE00FF000
[2021-Oct-15 16:09:55] [trace] [  JLink] - AP[0]: AHB-AP ROM base: 0xE00FF000
[2021-Oct-15 16:09:55] [trace] [  JLink] - CPUID register: 0x410FC241. Implementer code: 0x41 (ARM)
[2021-Oct-15 16:09:55] [trace] [  JLink] - CPUID register: 0x410FC241. Implementer code: 0x41 (ARM)
[2021-Oct-15 16:09:55] [trace] [  JLink] - Found Cortex-M4 r0p1, Little endian.
[2021-Oct-15 16:09:55] [trace] [  JLink] - Found Cortex-M4 r0p1, Little endian.
[2021-Oct-15 16:09:55] [trace] [  JLink] - -- Max. mem block: 0x000049B0
[2021-Oct-15 16:09:55] [trace] [  JLink] - CPU_ReadMem(4 bytes @ 0xE000EDF0)
[2021-Oct-15 16:09:55] [trace] [  JLink] - CPU_WriteMem(4 bytes @ 0xE000EDF0)
[2021-Oct-15 16:09:55] [trace] [  JLink] - CPU_ReadMem(4 bytes @ 0xE0002000)
[2021-Oct-15 16:09:55] [trace] [  JLink] - FPUnit: 6 code (BP) slots and 2 literal slots
[2021-Oct-15 16:09:55] [trace] [  JLink] - FPUnit: 6 code (BP) slots and 2 literal slots
[2021-Oct-15 16:09:55] [trace] [  JLink] - CPU_ReadMem(4 bytes @ 0xE000EDFC)
[2021-Oct-15 16:09:55] [trace] [  JLink] - CPU_WriteMem(4 bytes @ 0xE000EDFC)
[2021-Oct-15 16:09:55] [trace] [  JLink] - CPU_ReadMem(4 bytes @ 0xE0001000)
[2021-Oct-15 16:09:55] [trace] [  JLink] - CPU_WriteMem(4 bytes @ 0xE0001000)
[2021-Oct-15 16:09:55] [trace] [  JLink] - CPU_ReadMem(4 bytes @ 0xE000ED88)
[2021-Oct-15 16:09:55] [trace] [  JLink] - CPU_WriteMem(4 bytes @ 0xE000ED88)
[2021-Oct-15 16:09:55] [trace] [  JLink] - CPU_ReadMem(4 bytes @ 0xE000ED88)
[2021-Oct-15 16:09:55] [trace] [  JLink] - CPU_WriteMem(4 bytes @ 0xE000ED88)
[2021-Oct-15 16:09:55] [trace] [  JLink] - CoreSight components:
[2021-Oct-15 16:09:55] [trace] [  JLink] - CoreSight components:
[2021-Oct-15 16:09:55] [trace] [  JLink] - ROMTbl[0] @ E00FF000
[2021-Oct-15 16:09:55] [trace] [  JLink] - ROMTbl[0] @ E00FF000
[2021-Oct-15 16:09:55] [trace] [  JLink] - CPU_ReadMem(64 bytes @ 0xE00FF000)
[2021-Oct-15 16:09:55] [trace] [ Client] - Command read_device_info executed for 130 milliseconds with result 0
[2021-Oct-15 16:09:55] [trace] [  JLink] - CPU_ReadMem(32 bytes @ 0xE000EFE0)
[2021-Oct-15 16:09:55] [trace] [  JLink] - [0][0]: E000E000 CID B105E00D PID 000BB00C SCS-M7
[2021-Oct-15 16:09:55] [debug] [ Client] - read_memory_descriptors
[2021-Oct-15 16:09:55] [trace] [  JLink] - [0][0]: E000E000 CID B105E00D PID 000BB00C SCS-M7
[2021-Oct-15 16:09:55] [trace] [  JLink] - CPU_ReadMem(32 bytes @ 0xE0001FE0)
[2021-Oct-15 16:09:55] [trace] [  JLink] - [0][1]: E0001000 CID B105E00D PID 003BB002 DWT
[2021-Oct-15 16:09:55] [trace] [  JLink] - [0][1]: E0001000 CID B105E00D PID 003BB002 DWT
[2021-Oct-15 16:09:55] [trace] [  JLink] - CPU_ReadMem(32 bytes @ 0xE0002FE0)
[2021-Oct-15 16:09:55] [trace] [  JLink] - [0][2]: E0002000 CID B105E00D PID 002BB003 FPB
[2021-Oct-15 16:09:55] [trace] [  JLink] - [0][2]: E0002000 CID B105E00D PID 002BB003 FPB
[2021-Oct-15 16:09:55] [trace] [  JLink] - CPU_ReadMem(32 bytes @ 0xE0000FE0)
[2021-Oct-15 16:09:55] [trace] [  JLink] - [0][3]: E0000000 CID B105E00D PID 003BB001 ITM
[2021-Oct-15 16:09:55] [trace] [  JLink] - [0][3]: E0000000 CID B105E00D PID 003BB001 ITM
[2021-Oct-15 16:09:55] [trace] [  JLink] - CPU_ReadMem(32 bytes @ 0xE0040FE0)
[2021-Oct-15 16:09:55] [trace] [  JLink] - [0][4]: E0040000 CID B105900D PID 000BB9A1 TPIU
[2021-Oct-15 16:09:55] [trace] [  JLink] - [0][4]: E0040000 CID B105900D PID 000BB9A1 TPIU
[2021-Oct-15 16:09:55] [trace] [  JLink] - CPU_ReadMem(32 bytes @ 0xE0041FE0)
[2021-Oct-15 16:09:55] [trace] [  JLink] - [0][5]: E0041000 CID B105900D PID 000BB925 ETM
[2021-Oct-15 16:09:55] [trace] [  JLink] - [0][5]: E0041000 CID B105900D PID 000BB925 ETM
[2021-Oct-15 16:09:55] [trace] [  JLink] - - 124.608ms returns 0x00  
[2021-Oct-15 16:09:55] [trace] [  JLink] - JLINK_HasError()  
[2021-Oct-15 16:09:55] [trace] [  JLink] - JLINK_CORE_GetFound()  
[2021-Oct-15 16:09:55] [trace] [  JLink] - - 0.014ms returns 0xE0000FF  
[2021-Oct-15 16:09:55] [debug] [SeggerBackend] - ---just_read_u32
[2021-Oct-15 16:09:55] [debug] [SeggerBackend] - ---just_invalidate_cache
[2021-Oct-15 16:09:55] [trace] [  JLink] - JLINK_ExecCommand("InvalidateCache", ...).   
[2021-Oct-15 16:09:55] [trace] [  JLink] - - 0.021ms returns 0x00  
[2021-Oct-15 16:09:55] [trace] [  JLink] - JLINK_HasError()  
[2021-Oct-15 16:09:55] [trace] [  JLink] - JLINK_ReadMemU32(0x10000130, 0x1 Items)  
[2021-Oct-15 16:09:55] [trace] [  JLink] - CPU_ReadMem(4 bytes @ 0x10000130)
[2021-Oct-15 16:09:55] [trace] [  JLink] - Data:  06 00 00 00
[2021-Oct-15 16:09:55] [trace] [  JLink] - - 0.891ms returns 1 (0x1)  
[2021-Oct-15 16:09:55] [trace] [  JLink] - JLINK_HasError()  
[2021-Oct-15 16:09:55] [debug] [SeggerBackend] - read_u32
[2021-Oct-15 16:09:55] [debug] [SeggerBackend] - ---just_connect_to_device
[2021-Oct-15 16:09:55] [debug] [SeggerBackend] - is_connected_to_device
[2021-Oct-15 16:09:55] [debug] [SeggerBackend] - ---just_read_u32
[2021-Oct-15 16:09:55] [debug] [SeggerBackend] - ---just_invalidate_cache
[2021-Oct-15 16:09:55] [trace] [  JLink] - JLINK_ExecCommand("InvalidateCache", ...).   
[2021-Oct-15 16:09:55] [trace] [  JLink] - - 0.016ms returns 0x00  
[2021-Oct-15 16:09:55] [trace] [  JLink] - JLINK_HasError()  
[2021-Oct-15 16:09:55] [trace] [  JLink] - JLINK_ReadMemU32(0x10000134, 0x1 Items)  
[2021-Oct-15 16:09:55] [trace] [  JLink] - CPU_ReadMem(4 bytes @ 0x10000134)
[2021-Oct-15 16:09:55] [trace] [  JLink] - Data:  06 00 00 00
[2021-Oct-15 16:09:55] [trace] [  JLink] - - 0.730ms returns 1 (0x1)  
[2021-Oct-15 16:09:55] [trace] [  JLink] - JLINK_HasError()  
[2021-Oct-15 16:09:55] [debug] [  nRF52] - Just_decode_device_version
[2021-Oct-15 16:09:55] [debug] [SeggerBackend] - read_u32
[2021-Oct-15 16:09:55] [debug] [SeggerBackend] - ---just_connect_to_device
[2021-Oct-15 16:09:55] [debug] [SeggerBackend] - is_connected_to_device
[2021-Oct-15 16:09:55] [debug] [SeggerBackend] - ---just_read_u32
[2021-Oct-15 16:09:55] [debug] [SeggerBackend] - ---just_invalidate_cache
[2021-Oct-15 16:09:55] [trace] [  JLink] - JLINK_ExecCommand("InvalidateCache", ...).   
[2021-Oct-15 16:09:55] [trace] [  JLink] - - 0.016ms returns 0x00  
[2021-Oct-15 16:09:55] [trace] [  JLink] - JLINK_HasError()  
[2021-Oct-15 16:09:55] [trace] [  JLink] - JLINK_ReadMemU32(0x10000110, 0x1 Items)  
[2021-Oct-15 16:09:55] [trace] [  JLink] - CPU_ReadMem(4 bytes @ 0x10000110)
[2021-Oct-15 16:09:55] [trace] [  JLink] - Data:  00 02 00 00
[2021-Oct-15 16:09:55] [trace] [  JLink] - - 0.788ms returns 1 (0x1)  
[2021-Oct-15 16:09:55] [trace] [  JLink] - JLINK_HasError()  
[2021-Oct-15 16:09:55] [trace] [  JLink] - - 0.018ms  
[2021-Oct-15 16:09:55] [trace] [ Worker] - Command read_device_info executed for 130 milliseconds with result 0
[2021-Oct-15 16:09:55] [debug] [  nRF52] - read_memory_descriptors
[2021-Oct-15 16:09:55] [debug] [SeggerBackend] - is_connected_to_emu
[2021-Oct-15 16:09:55] [trace] [  JLink] - JLINK_IsOpen()  
[2021-Oct-15 16:09:55] [trace] [  JLink] - - 0.026ms returns 0x01  
[2021-Oct-15 16:09:55] [trace] [  JLink] - JLINK_HasError()  
[2021-Oct-15 16:09:55] [trace] [  JLink] - JLINK_Lock()  
[2021-Oct-15 16:09:55] [debug] [  nRF52] - Just_read_memory_descriptors
[2021-Oct-15 16:09:55] [debug] [  nRF52] - Just_readback_status
[2021-Oct-15 16:09:55] [debug] [  nRF52] - Just_is_ctrl_ap_available
[2021-Oct-15 16:09:55] [debug] [SeggerBackend] - read_access_port_register
[2021-Oct-15 16:09:55] [debug] [SeggerBackend] - ---just_read_access_port_register
[2021-Oct-15 16:09:55] [debug] [SeggerBackend] - ---just_is_debug_region_powered
[2021-Oct-15 16:09:55] [debug] [SeggerBackend] - ---just_read_debug_port_register
[2021-Oct-15 16:09:55] [debug] [SeggerBackend] - ---just_select_debug_port_register
[2021-Oct-15 16:09:55] [debug] [SeggerBackend] - Select AP 255, DP Bank 0, AP Bank 255
[2021-Oct-15 16:09:55] [trace] [  JLink] - JLINK_CORESIGHT_WriteAPDPReg(DP reg 0x02, 0x00000000)  
[2021-Oct-15 16:09:55] [trace] [  JLink] - - 0.244ms returns 0  
[2021-Oct-15 16:09:55] [trace] [  JLink] - JLINK_HasError()  
[2021-Oct-15 16:09:55] [trace] [  JLink] - JLINK_CORESIGHT_ReadAPDPReg(DP reg 0x01)  
[2021-Oct-15 16:09:55] [trace] [  JLink] - Value=0xF0000040
[2021-Oct-15 16:09:55] [trace] [  JLink] - - 0.213ms returns 0  
[2021-Oct-15 16:09:55] [trace] [  JLink] - JLINK_HasError()  
[2021-Oct-15 16:09:55] [debug] [SeggerBackend] - ---just_select_access_port_register
[2021-Oct-15 16:09:55] [debug] [SeggerBackend] - Select AP 1, DP Bank 0, AP Bank 15
[2021-Oct-15 16:09:55] [trace] [  JLink] - JLINK_CORESIGHT_WriteAPDPReg(DP reg 0x02, 0x010000F0)  
[2021-Oct-15 16:09:55] [trace] [  JLink] - - 0.220ms returns 0  
[2021-Oct-15 16:09:55] [trace] [  JLink] - JLINK_HasError()  
[2021-Oct-15 16:09:55] [trace] [  JLink] - JLINK_CORESIGHT_ReadAPDPReg(AP reg 0x03)  
[2021-Oct-15 16:09:55] [trace] [  JLink] - Value=0x02880000
[2021-Oct-15 16:09:55] [trace] [  JLink] - - 0.285ms returns 0  
[2021-Oct-15 16:09:55] [trace] [  JLink] - JLINK_HasError()  
[2021-Oct-15 16:09:55] [debug] [SeggerBackend] - read_access_port_register
[2021-Oct-15 16:09:55] [debug] [SeggerBackend] - ---just_read_access_port_register
[2021-Oct-15 16:09:55] [debug] [SeggerBackend] - ---just_select_access_port_register
[2021-Oct-15 16:09:55] [trace] [  JLink] - JLINK_CORESIGHT_ReadAPDPReg(AP reg 0x03)  
[2021-Oct-15 16:09:55] [trace] [  JLink] - Value=0x02880000
[2021-Oct-15 16:09:55] [trace] [  JLink] - - 0.373ms returns 0  
[2021-Oct-15 16:09:55] [trace] [  JLink] - JLINK_HasError()  
[2021-Oct-15 16:09:55] [debug] [SeggerBackend] - read_access_port_register
[2021-Oct-15 16:09:55] [debug] [SeggerBackend] - ---just_read_access_port_register
[2021-Oct-15 16:09:55] [debug] [SeggerBackend] - ---just_select_access_port_register
[2021-Oct-15 16:09:55] [trace] [  JLink] - JLINK_CORESIGHT_ReadAPDPReg(AP reg 0x03)  
[2021-Oct-15 16:09:55] [trace] [  JLink] - Value=0x02880000
[2021-Oct-15 16:09:55] [trace] [  JLink] - - 0.302ms returns 0  
[2021-Oct-15 16:09:55] [trace] [  JLink] - JLINK_HasError()  
[2021-Oct-15 16:09:55] [debug] [SeggerBackend] - read_access_port_register
[2021-Oct-15 16:09:55] [debug] [SeggerBackend] - ---just_read_access_port_register
[2021-Oct-15 16:09:55] [debug] [SeggerBackend] - ---just_select_access_port_register
[2021-Oct-15 16:09:55] [trace] [  JLink] - JLINK_CORESIGHT_ReadAPDPReg(AP reg 0x03)  
[2021-Oct-15 16:09:55] [trace] [  JLink] - Value=0x02880000
[2021-Oct-15 16:09:55] [trace] [  JLink] - - 0.294ms returns 0  
[2021-Oct-15 16:09:55] [trace] [  JLink] - JLINK_HasError()  
[2021-Oct-15 16:09:55] [debug] [SeggerBackend] - read_access_port_register
[2021-Oct-15 16:09:55] [debug] [SeggerBackend] - ---just_read_access_port_register
[2021-Oct-15 16:09:55] [debug] [SeggerBackend] - ---just_select_access_port_register
[2021-Oct-15 16:09:55] [debug] [SeggerBackend] - Select AP 1, DP Bank 0, AP Bank 0
[2021-Oct-15 16:09:55] [trace] [  JLink] - JLINK_CORESIGHT_WriteAPDPReg(DP reg 0x02, 0x01000000)  
[2021-Oct-15 16:09:55] [trace] [  JLink] - - 0.232ms returns 0  
[2021-Oct-15 16:09:55] [trace] [  JLink] - JLINK_HasError()  
[2021-Oct-15 16:09:55] [trace] [  JLink] - JLINK_CORESIGHT_ReadAPDPReg(AP reg 0x03)  
[2021-Oct-15 16:09:55] [trace] [  JLink] - Value=0x00000001
[2021-Oct-15 16:09:55] [trace] [  JLink] - - 0.307ms returns 0  
[2021-Oct-15 16:09:55] [trace] [  JLink] - JLINK_HasError()  
[2021-Oct-15 16:09:55] [debug] [SeggerBackend] - read_access_port_register
[2021-Oct-15 16:09:55] [debug] [SeggerBackend] - ---just_read_access_port_register
[2021-Oct-15 16:09:55] [debug] [SeggerBackend] - ---just_select_access_port_register
[2021-Oct-15 16:09:55] [trace] [  JLink] - JLINK_CORESIGHT_ReadAPDPReg(AP reg 0x03)  
[2021-Oct-15 16:09:55] [trace] [  JLink] - Value=0x00000001
[2021-Oct-15 16:09:55] [trace] [  JLink] - - 0.386ms returns 0  
[2021-Oct-15 16:09:55] [trace] [  JLink] - JLINK_HasError()  
[2021-Oct-15 16:09:55] [debug] [SeggerBackend] - read_access_port_register
[2021-Oct-15 16:09:55] [debug] [SeggerBackend] - ---just_read_access_port_register
[2021-Oct-15 16:09:55] [debug] [SeggerBackend] - ---just_select_access_port_register
[2021-Oct-15 16:09:55] [trace] [  JLink] - JLINK_CORESIGHT_ReadAPDPReg(AP reg 0x03)  
[2021-Oct-15 16:09:55] [trace] [  JLink] - Value=0x00000001
[2021-Oct-15 16:09:55] [trace] [  JLink] - - 0.456ms returns 0  
[2021-Oct-15 16:09:55] [trace] [  JLink] - JLINK_HasError()  
[2021-Oct-15 16:09:55] [debug] [SeggerBackend] - read_access_port_register
[2021-Oct-15 16:09:55] [debug] [SeggerBackend] - ---just_read_access_port_register
[2021-Oct-15 16:09:55] [debug] [SeggerBackend] - ---just_select_access_port_register
[2021-Oct-15 16:09:55] [trace] [  JLink] - JLINK_CORESIGHT_ReadAPDPReg(AP reg 0x03)  
[2021-Oct-15 16:09:55] [trace] [  JLink] - Value=0x00000001
[2021-Oct-15 16:09:55] [trace] [  JLink] - - 0.399ms returns 0  
[2021-Oct-15 16:09:55] [trace] [  JLink] - JLINK_HasError()  
[2021-Oct-15 16:09:55] [ info] [  nRF52] - Protection status read as NONE
[2021-Oct-15 16:09:55] [debug] [  nRF52] - update_device_memory_list
[2021-Oct-15 16:09:55] [debug] [  nRF52] - Just_read_device_version
[2021-Oct-15 16:09:55] [debug] [  nRF52] - Just_readback_status
[2021-Oct-15 16:09:55] [debug] [  nRF52] - Just_is_ctrl_ap_available
[2021-Oct-15 16:09:55] [debug] [SeggerBackend] - read_access_port_register
[2021-Oct-15 16:09:55] [debug] [SeggerBackend] - ---just_read_access_port_register
[2021-Oct-15 16:09:55] [debug] [SeggerBackend] - ---just_select_access_port_register
[2021-Oct-15 16:09:55] [debug] [SeggerBackend] - Select AP 1, DP Bank 0, AP Bank 15
[2021-Oct-15 16:09:55] [trace] [  JLink] - JLINK_CORESIGHT_WriteAPDPReg(DP reg 0x02, 0x010000F0)  
[2021-Oct-15 16:09:55] [trace] [  JLink] - - 0.250ms returns 0  
[2021-Oct-15 16:09:55] [trace] [  JLink] - JLINK_HasError()  
[2021-Oct-15 16:09:55] [trace] [  JLink] - JLINK_CORESIGHT_ReadAPDPReg(AP reg 0x03)  
[2021-Oct-15 16:09:55] [trace] [  JLink] - Value=0x02880000
[2021-Oct-15 16:09:55] [trace] [  JLink] - - 0.412ms returns 0  
[2021-Oct-15 16:09:55] [trace] [  JLink] - JLINK_HasError()  
[2021-Oct-15 16:09:55] [debug] [SeggerBackend] - read_access_port_register
[2021-Oct-15 16:09:55] [debug] [SeggerBackend] - ---just_read_access_port_register
[2021-Oct-15 16:09:55] [debug] [SeggerBackend] - ---just_select_access_port_register
[2021-Oct-15 16:09:55] [trace] [  JLink] - JLINK_CORESIGHT_ReadAPDPReg(AP reg 0x03)  
[2021-Oct-15 16:09:55] [trace] [  JLink] - Value=0x02880000
[2021-Oct-15 16:09:55] [trace] [  JLink] - - 0.361ms returns 0  
[2021-Oct-15 16:09:55] [trace] [  JLink] - JLINK_HasError()  
[2021-Oct-15 16:09:55] [debug] [SeggerBackend] - read_access_port_register
[2021-Oct-15 16:09:55] [debug] [SeggerBackend] - ---just_read_access_port_register
[2021-Oct-15 16:09:55] [debug] [SeggerBackend] - ---just_select_access_port_register
[2021-Oct-15 16:09:55] [trace] [  JLink] - JLINK_CORESIGHT_ReadAPDPReg(AP reg 0x03)  
[2021-Oct-15 16:09:55] [trace] [  JLink] - Value=0x02880000
[2021-Oct-15 16:09:55] [trace] [  JLink] - - 0.307ms returns 0  
[2021-Oct-15 16:09:55] [trace] [  JLink] - JLINK_HasError()  
[2021-Oct-15 16:09:55] [debug] [SeggerBackend] - read_access_port_register
[2021-Oct-15 16:09:55] [debug] [SeggerBackend] - ---just_read_access_port_register
[2021-Oct-15 16:09:55] [debug] [SeggerBackend] - ---just_select_access_port_register
[2021-Oct-15 16:09:55] [trace] [  JLink] - JLINK_CORESIGHT_ReadAPDPReg(AP reg 0x03)  
[2021-Oct-15 16:09:55] [trace] [  JLink] - Value=0x02880000
[2021-Oct-15 16:09:55] [trace] [  JLink] - - 0.362ms returns 0  
[2021-Oct-15 16:09:55] [trace] [  JLink] - JLINK_HasError()  
[2021-Oct-15 16:09:55] [debug] [SeggerBackend] - read_access_port_register
[2021-Oct-15 16:09:55] [debug] [SeggerBackend] - ---just_read_access_port_register
[2021-Oct-15 16:09:55] [debug] [SeggerBackend] - ---just_select_access_port_register
[2021-Oct-15 16:09:55] [debug] [SeggerBackend] - Select AP 1, DP Bank 0, AP Bank 0
[2021-Oct-15 16:09:55] [trace] [  JLink] - JLINK_CORESIGHT_WriteAPDPReg(DP reg 0x02, 0x01000000)  
[2021-Oct-15 16:09:55] [trace] [  JLink] - - 0.322ms returns 0  
[2021-Oct-15 16:09:55] [trace] [  JLink] - JLINK_HasError()  
[2021-Oct-15 16:09:55] [trace] [  JLink] - JLINK_CORESIGHT_ReadAPDPReg(AP reg 0x03)  
[2021-Oct-15 16:09:55] [trace] [  JLink] - Value=0x00000001
[2021-Oct-15 16:09:55] [trace] [  JLink] - - 0.357ms returns 0  
[2021-Oct-15 16:09:55] [trace] [  JLink] - JLINK_HasError()  
[2021-Oct-15 16:09:55] [debug] [SeggerBackend] - read_access_port_register
[2021-Oct-15 16:09:55] [debug] [SeggerBackend] - ---just_read_access_port_register
[2021-Oct-15 16:09:55] [debug] [SeggerBackend] - ---just_select_access_port_register
[2021-Oct-15 16:09:55] [trace] [  JLink] - JLINK_CORESIGHT_ReadAPDPReg(AP reg 0x03)  
[2021-Oct-15 16:09:55] [trace] [  JLink] - Value=0x00000001
[2021-Oct-15 16:09:55] [trace] [  JLink] - - 0.507ms returns 0  
[2021-Oct-15 16:09:55] [trace] [  JLink] - JLINK_HasError()  
[2021-Oct-15 16:09:55] [debug] [SeggerBackend] - read_access_port_register
[2021-Oct-15 16:09:55] [debug] [SeggerBackend] - ---just_read_access_port_register
[2021-Oct-15 16:09:55] [debug] [SeggerBackend] - ---just_select_access_port_register
[2021-Oct-15 16:09:55] [trace] [  JLink] - JLINK_CORESIGHT_ReadAPDPReg(AP reg 0x03)  
[2021-Oct-15 16:09:55] [trace] [  JLink] - Value=0x00000001
[2021-Oct-15 16:09:55] [trace] [  JLink] - - 0.505ms returns 0  
[2021-Oct-15 16:09:55] [trace] [  JLink] - JLINK_HasError()  
[2021-Oct-15 16:09:55] [debug] [SeggerBackend] - read_access_port_register
[2021-Oct-15 16:09:55] [debug] [SeggerBackend] - ---just_read_access_port_register
[2021-Oct-15 16:09:55] [debug] [SeggerBackend] - ---just_select_access_port_register
[2021-Oct-15 16:09:55] [trace] [  JLink] - JLINK_CORESIGHT_ReadAPDPReg(AP reg 0x03)  
[2021-Oct-15 16:09:55] [trace] [  JLink] - Value=0x00000001
[2021-Oct-15 16:09:55] [trace] [  JLink] - - 0.286ms returns 0  
[2021-Oct-15 16:09:55] [trace] [  JLink] - JLINK_HasError()  
[2021-Oct-15 16:09:55] [ info] [  nRF52] - Protection status read as NONE
[2021-Oct-15 16:09:55] [debug] [SeggerBackend] - read_u32
[2021-Oct-15 16:09:55] [debug] [SeggerBackend] - ---just_connect_to_device
[2021-Oct-15 16:09:55] [debug] [SeggerBackend] - is_connected_to_device
[2021-Oct-15 16:09:55] [trace] [  JLink] - JLINK_IsConnected()  
[2021-Oct-15 16:09:55] [trace] [  JLink] - - 0.011ms returns TRUE  
[2021-Oct-15 16:09:55] [trace] [  JLink] - JLINK_HasError()  
[2021-Oct-15 16:09:55] [debug] [SeggerBackend] - ---just_read_u32
[2021-Oct-15 16:09:55] [debug] [SeggerBackend] - ---just_invalidate_cache
[2021-Oct-15 16:09:55] [trace] [  JLink] - JLINK_ExecCommand("InvalidateCache", ...).   
[2021-Oct-15 16:09:55] [trace] [  JLink] - - 0.016ms returns 0x00  
[2021-Oct-15 16:09:55] [trace] [  JLink] - JLINK_HasError()  
[2021-Oct-15 16:09:55] [trace] [  JLink] - JLINK_ReadMemU32(0x10000130, 0x1 Items)  
[2021-Oct-15 16:09:55] [trace] [  JLink] - CPU_ReadMem(4 bytes @ 0x10000130)
[2021-Oct-15 16:09:55] [trace] [  JLink] - Data:  06 00 00 00
[2021-Oct-15 16:09:55] [trace] [  JLink] - - 0.548ms returns 1 (0x1)  
[2021-Oct-15 16:09:55] [trace] [  JLink] - JLINK_HasError()  
[2021-Oct-15 16:09:55] [debug] [SeggerBackend] - read_u32
[2021-Oct-15 16:09:55] [debug] [SeggerBackend] - ---just_connect_to_device
[2021-Oct-15 16:09:55] [debug] [SeggerBackend] - is_connected_to_device
[2021-Oct-15 16:09:55] [debug] [SeggerBackend] - ---just_read_u32
[2021-Oct-15 16:09:55] [debug] [SeggerBackend] - ---just_invalidate_cache
[2021-Oct-15 16:09:55] [trace] [  JLink] - JLINK_ExecCommand("InvalidateCache", ...).   
[2021-Oct-15 16:09:55] [trace] [  JLink] - - 0.013ms returns 0x00  
[2021-Oct-15 16:09:55] [trace] [  JLink] - JLINK_HasError()  
[2021-Oct-15 16:09:55] [trace] [  JLink] - JLINK_ReadMemU32(0x10000134, 0x1 Items)  
[2021-Oct-15 16:09:55] [trace] [  JLink] - CPU_ReadMem(4 bytes @ 0x10000134)
[2021-Oct-15 16:09:55] [trace] [  JLink] - Data:  06 00 00 00
[2021-Oct-15 16:09:55] [trace] [  JLink] - - 0.581ms returns 1 (0x1)  
[2021-Oct-15 16:09:55] [trace] [  JLink] - JLINK_HasError()  
[2021-Oct-15 16:09:55] [debug] [  nRF52] - Just_decode_device_version
[2021-Oct-15 16:09:55] [debug] [SeggerBackend] - read_u32
[2021-Oct-15 16:09:55] [debug] [SeggerBackend] - ---just_connect_to_device
[2021-Oct-15 16:09:55] [debug] [SeggerBackend] - is_connected_to_device
[2021-Oct-15 16:09:55] [debug] [SeggerBackend] - ---just_read_u32
[2021-Oct-15 16:09:55] [debug] [SeggerBackend] - ---just_invalidate_cache
[2021-Oct-15 16:09:55] [trace] [  JLink] - JLINK_ExecCommand("InvalidateCache", ...).   
[2021-Oct-15 16:09:55] [trace] [  JLink] - - 0.012ms returns 0x00  
[2021-Oct-15 16:09:55] [trace] [  JLink] - JLINK_HasError()  
[2021-Oct-15 16:09:55] [trace] [  JLink] - JLINK_ReadMemU32(0x10000110, 0x1 Items)  
[2021-Oct-15 16:09:55] [trace] [  JLink] - CPU_ReadMem(4 bytes @ 0x10000110)
[2021-Oct-15 16:09:55] [trace] [  JLink] - Data:  00 02 00 00
[2021-Oct-15 16:09:55] [trace] [  JLink] - - 0.551ms returns 1 (0x1)  
[2021-Oct-15 16:09:55] [trace] [  JLink] - JLINK_HasError()  
[2021-Oct-15 16:09:55] [trace] [ Client] - Command read_memory_descriptors executed for 24 milliseconds with result 0
[2021-Oct-15 16:09:55] [debug] [ Client] - read_memory_descriptors
[2021-Oct-15 16:09:55] [debug] [  nRF52] - Read memory description from family DLL: "Flash" [0x00000000-0x00080000] 128 pages (128x4kB) static ID0
[2021-Oct-15 16:09:55] [debug] [  nRF52] - Read memory description from family DLL: "Code RAM" [0x00800000-0x00810000] 16 pages (16x4kB) static ID8388608
[2021-Oct-15 16:09:55] [debug] [  nRF52] - Read memory description from family DLL: "FICR" [0x10000000-0x10001000] 1 pages (1x4kB) static ID268435456
[2021-Oct-15 16:09:55] [debug] [  nRF52] - Read memory description from family DLL: "UICR" [0x10001000-0x10002000] 1 pages (1x4kB) static ID268439552
[2021-Oct-15 16:09:55] [debug] [  nRF52] - Read memory description from family DLL: "RAM" [0x20000000-0x20010000] 16 pages (16x4kB) static ID536870912
[2021-Oct-15 16:09:55] [trace] [  JLink] - - 14.693ms  
[2021-Oct-15 16:09:55] [trace] [ Worker] - Command read_memory_descriptors executed for 24 milliseconds with result 0
[2021-Oct-15 16:09:55] [debug] [  nRF52] - read_memory_descriptors
[2021-Oct-15 16:09:55] [debug] [SeggerBackend] - is_connected_to_emu
[2021-Oct-15 16:09:55] [trace] [  JLink] - JLINK_IsOpen()  
[2021-Oct-15 16:09:55] [trace] [  JLink] - - 0.020ms returns 0x01  
[2021-Oct-15 16:09:55] [trace] [  JLink] - JLINK_HasError()  
[2021-Oct-15 16:09:55] [trace] [  JLink] - JLINK_Lock()  
[2021-Oct-15 16:09:55] [debug] [  nRF52] - Just_read_memory_descriptors
[2021-Oct-15 16:09:55] [debug] [  nRF52] - Just_readback_status
[2021-Oct-15 16:09:55] [debug] [  nRF52] - Just_is_ctrl_ap_available
[2021-Oct-15 16:09:55] [debug] [SeggerBackend] - read_access_port_register
[2021-Oct-15 16:09:55] [debug] [SeggerBackend] - ---just_read_access_port_register
[2021-Oct-15 16:09:55] [debug] [SeggerBackend] - ---just_is_debug_region_powered
[2021-Oct-15 16:09:55] [debug] [SeggerBackend] - ---just_read_debug_port_register
[2021-Oct-15 16:09:55] [debug] [SeggerBackend] - ---just_select_debug_port_register
[2021-Oct-15 16:09:55] [debug] [SeggerBackend] - Select AP 255, DP Bank 0, AP Bank 255
[2021-Oct-15 16:09:55] [trace] [  JLink] - JLINK_CORESIGHT_WriteAPDPReg(DP reg 0x02, 0x00000000)  
[2021-Oct-15 16:09:55] [trace] [  JLink] - - 0.263ms returns 0  
[2021-Oct-15 16:09:55] [trace] [  JLink] - JLINK_HasError()  
[2021-Oct-15 16:09:55] [trace] [  JLink] - JLINK_CORESIGHT_ReadAPDPReg(DP reg 0x01)  
[2021-Oct-15 16:09:55] [trace] [  JLink] - Value=0xF0000040
[2021-Oct-15 16:09:55] [trace] [  JLink] - - 0.335ms returns 0  
[2021-Oct-15 16:09:55] [trace] [  JLink] - JLINK_HasError()  
[2021-Oct-15 16:09:55] [debug] [SeggerBackend] - ---just_select_access_port_register
[2021-Oct-15 16:09:55] [debug] [SeggerBackend] - Select AP 1, DP Bank 0, AP Bank 15
[2021-Oct-15 16:09:55] [trace] [  JLink] - JLINK_CORESIGHT_WriteAPDPReg(DP reg 0x02, 0x010000F0)  
[2021-Oct-15 16:09:55] [trace] [  JLink] - - 0.354ms returns 0  
[2021-Oct-15 16:09:55] [trace] [  JLink] - JLINK_HasError()  
[2021-Oct-15 16:09:55] [trace] [  JLink] - JLINK_CORESIGHT_ReadAPDPReg(AP reg 0x03)  
[2021-Oct-15 16:09:55] [trace] [  JLink] - Value=0x02880000
[2021-Oct-15 16:09:55] [trace] [  JLink] - - 0.316ms returns 0  
[2021-Oct-15 16:09:55] [trace] [  JLink] - JLINK_HasError()  
[2021-Oct-15 16:09:55] [debug] [SeggerBackend] - read_access_port_register
[2021-Oct-15 16:09:55] [debug] [SeggerBackend] - ---just_read_access_port_register
[2021-Oct-15 16:09:55] [debug] [SeggerBackend] - ---just_select_access_port_register
[2021-Oct-15 16:09:55] [trace] [  JLink] - JLINK_CORESIGHT_ReadAPDPReg(AP reg 0x03)  
[2021-Oct-15 16:09:55] [trace] [  JLink] - Value=0x02880000
[2021-Oct-15 16:09:55] [trace] [  JLink] - - 0.308ms returns 0  
[2021-Oct-15 16:09:55] [trace] [  JLink] - JLINK_HasError()  
[2021-Oct-15 16:09:55] [debug] [SeggerBackend] - read_access_port_register
[2021-Oct-15 16:09:55] [debug] [SeggerBackend] - ---just_read_access_port_register
[2021-Oct-15 16:09:55] [debug] [SeggerBackend] - ---just_select_access_port_register
[2021-Oct-15 16:09:55] [trace] [  JLink] - JLINK_CORESIGHT_ReadAPDPReg(AP reg 0x03)  
[2021-Oct-15 16:09:55] [trace] [  JLink] - Value=0x02880000
[2021-Oct-15 16:09:55] [trace] [  JLink] - - 0.359ms returns 0  
[2021-Oct-15 16:09:55] [trace] [  JLink] - JLINK_HasError()  
[2021-Oct-15 16:09:55] [debug] [SeggerBackend] - read_access_port_register
[2021-Oct-15 16:09:55] [debug] [SeggerBackend] - ---just_read_access_port_register
[2021-Oct-15 16:09:55] [debug] [SeggerBackend] - ---just_select_access_port_register
[2021-Oct-15 16:09:55] [trace] [  JLink] - JLINK_CORESIGHT_ReadAPDPReg(AP reg 0x03)  
[2021-Oct-15 16:09:55] [trace] [  JLink] - Value=0x02880000
[2021-Oct-15 16:09:55] [trace] [  JLink] - - 0.359ms returns 0  
[2021-Oct-15 16:09:55] [trace] [  JLink] - JLINK_HasError()  
[2021-Oct-15 16:09:55] [debug] [SeggerBackend] - read_access_port_register
[2021-Oct-15 16:09:55] [debug] [SeggerBackend] - ---just_read_access_port_register
[2021-Oct-15 16:09:55] [debug] [SeggerBackend] - ---just_select_access_port_register
[2021-Oct-15 16:09:55] [debug] [SeggerBackend] - Select AP 1, DP Bank 0, AP Bank 0
[2021-Oct-15 16:09:55] [trace] [  JLink] - JLINK_CORESIGHT_WriteAPDPReg(DP reg 0x02, 0x01000000)  
[2021-Oct-15 16:09:55] [trace] [  JLink] - - 0.255ms returns 0  
[2021-Oct-15 16:09:55] [trace] [  JLink] - JLINK_HasError()  
[2021-Oct-15 16:09:55] [trace] [  JLink] - JLINK_CORESIGHT_ReadAPDPReg(AP reg 0x03)  
[2021-Oct-15 16:09:55] [trace] [  JLink] - Value=0x00000001
[2021-Oct-15 16:09:55] [trace] [  JLink] - - 0.281ms returns 0  
[2021-Oct-15 16:09:55] [trace] [  JLink] - JLINK_HasError()  
